Using: /usr/bin/time -p /usr/eelocal/synopsys/hspice-vf2011.09/hspice/amd64/hspice opamp_slewrate.sp
 ****** HSPICE -- F-2011.09 64-BIT (Sep  5 2011) linux ******                   
  Copyright (C) 2011 Synopsys, Inc. All Rights Reserved.                        
  Unpublished-rights reserved under US copyright laws.
  This program is protected by law and is subject to the
  terms and conditions of the license agreement from Synopsys.
  Use of this program is your acceptance to be bound by the
  license agreement. HSPICE is the trademark of Synopsys, Inc.
  Input File: opamp_slewrate.sp                                                 
  Command line options: opamp_slewrate.sp
 lic:  
 lic: FLEXlm: v10.8 
 lic: USER:   kslamaf              HOSTNAME: EEX052 
 lic: HOSTID:                      PID:      14551 
 lic: Using FLEXlm license file: 
 lic: 27041@eesvr5.ece.ust.hk 
 lic: Checkout 1 hspice 
 lic: License/Maintenance for hspice will expire on 20-may-2021/2020.12 
 lic: 1(in_use)/25(total) FLOATING license(s) on SERVER eesvr5.ece.ust.hk 
 lic:   
 Init: read install configuration file: /usr/eelocal/synopsys/hspice-vf2011.09/hspice/meta.cfg
1****** HSPICE -- F-2011.09 64-BIT (Sep  5 2011) linux ******                   
 ******  
 * eesm5120 amplifier design

  ******  circuit name directory
 circuit number to circuit name directory
   number circuitname                     definition         multiplier
        0 main circuit
        1 x1.                             folded_cascode_amp
                                                                 1.00 
        2 x1.x1.                          aux_p              1.00 
        3 x1.x2.                          aux_p              1.00 
        4 x1.x3.                          aux_n              1.00 
        5 x1.x4.                          aux_n              1.00 
  **info** (opamp_slewrate.sp:16) DC voltage reset to initial transient source value              in source        0:vpulse              new dc= -0.1000D+01
 

  
      
 **info** set option symb=1 internally to help for convergence.
 *****************************************************************
 ******  option summary
 ******
 runlvl  = 3         bypass  = 2         
  Opening plot unit= 15
 file=opamp_slewrate.pa0                                                       

1****** HSPICE -- F-2011.09 64-BIT (Sep  5 2011) linux ******                   
 ******  
 * eesm5120 amplifier design

  ******  operating point information tnom=  25.000 temp=  25.000 *****
 ***** operating point status is all       simulation time is     0.     
    node    =voltage      node    =voltage      node    =voltage

 +0:vdd     =   1.0000  0:vin+    =  -1.0000  0:vo+     =-932.2150m
 +0:vo-     = 992.7824m 0:vss     =  -1.0000  1:1       = 325.7934m
 +1:2       =-174.9333m 1:3       = 450.8562m 1:4       = 992.9102m
 +1:5       = 854.6107m 1:6       =-444.1419m 1:7       = 273.1659m
 +1:8       =-863.4869m 1:9       =-942.9070m 1:10      =-400.0487m
 +1:11      = 955.4416m 1:12      =-987.3099m 1:13      = 203.4703m
 +1:14      =-451.9551m 1:15      = 922.0940m 2:1       = 463.8458m
 +3:1       = 286.7964m 4:2       =-296.3561m 5:2       =-395.6424m


 **** voltage sources

 subckt                                   
 element  0:vdd      0:vss      0:vpulse  
  volts      1.0000    -1.0000    -1.0000 
  current -393.8990u  393.8990u    0.     
  power    393.8990u  393.8990u    0.     

     total voltage source power dissipation=  787.7981u       watts



 **** current sources

 subckt   x1        
 element  1:ib      
  volts      1.3258 
  current   10.0000u
  power    -13.2579u


     total current source power dissipation= -13.2579u       watts


 **** mosfets


 subckt   x1         x1         x1         x1         x1         x1        
 element  1:m01      1:m02      1:m03      1:m04      1:m05      1:m06     
 model    0:cmosp    0:cmosp    0:cmosp    0:cmosp    0:cmosp    0:cmosp   
 region     Saturati     Cutoff     Linear   Saturati     Linear   Saturati
  id      -163.8364u  -39.2607u   -9.0043u  -78.4669u -667.6213n  -70.3418u
  ibs        0.         0.         0.         0.         0.         0.     
  ibd        0.         0.         0.         0.         0.         0.     
  vgs     -825.0667m -757.2817m -549.1438m -549.1438m   -1.9802  -651.1404m
  vds     -688.5537m -767.9737m   -7.0898m -145.3893m -127.8153u   -1.7868 
  vbs        1.1749     1.1749     0.         0.         7.0898m  145.3893m
  vth     -784.7414m -784.5216m -444.4683m -444.3204m -446.6672m -486.3472m
  vdsat    -84.6017m  -57.9361m -107.7112m -107.8059m   -1.1267  -152.5636m
  vod      -40.3253m   27.2399m -104.6754m -104.8234m   -1.5336  -164.7932m
  beta      61.0580m   61.5218m   15.0755m   15.0761m    3.7616m    4.9005m
  gam eff  508.8767m  508.8767m  530.6820m  530.6820m  530.3053m  527.1855m
  gm         3.1449m  908.3203u   88.5400u    1.1444m  273.8694n  751.8299u
  gds       37.8876u   10.3950u    1.2248m   74.9151u    5.2230m    5.5864u
  gmb      697.5439u  201.9482u   28.0737u  348.3994u  167.4220n  216.5706u
  cdtot    185.6392f  184.7315f  175.7215f  119.6820f   69.4630f   33.4453f
  cgtot    281.0807f  242.4424f  254.8224f  232.6238f   88.6301f   79.1816f
  cstot    233.9391f  210.6458f  164.8007f  187.5243f   49.6581f   62.5700f
  cbtot    206.5621f  205.8907f  190.5023f  179.1486f   65.9977f   51.7272f
  cgs      177.8392f  130.4517f  149.6813f  172.6230f   45.6843f   60.1091f
  cgd       96.8829f   96.9860f  103.6749f   51.8403f   43.5057f   16.8250f



 subckt   x1         x1         x1         x1         x1         x1        
 element  1:m07      1:m08      1:m09      1:m10      1:m11      1:m12     
 model    0:cmosn    0:cmosn    0:cmosn    0:cmosn    0:cmosp    0:cmosn   
 region       Cutoff     Linear   Saturati     Linear   Saturati   Saturati
  id       667.6175n   70.3418u  171.8439u  116.9904u  -10.0000u    9.6290u
  ibs        0.         0.         0.         0.         0.         0.     
  ibd        0.         0.         0.         0.         0.         0.     
  vgs      411.5319m    1.8650   599.9513m  599.9513m -674.2066m  599.9513m
  vds        1.8563    10.6920m  136.5131m   57.0930m -674.2066m  599.9513m
  vbs     -136.5131m  -57.0930m    0.         0.         0.         0.     
  vth      505.6028m  493.5181m  477.8912m  478.3159m -442.6878m  462.6186m
  vdsat     38.1182m  554.4493m  103.3899m  103.1569m -192.2525m  111.7534m
  vod      -94.0709m    1.3715   122.0601m  121.6354m -231.5188m  137.3327m
  beta       7.3537m    5.7733m   27.8791m   27.8791m  421.8595u    1.1023m
  gam eff  574.9765m  575.1368m  576.4327m  576.4327m  527.0619m  566.2301m
  gm        16.8383u   21.2975u    2.3077m    1.2938m   80.6199u  125.7384u
  gds      157.6642n    6.5366m  282.0681u    1.3528m    1.0309u    1.5960u
  gmb        4.4633u   14.2734u  609.7526u  347.4972u   24.4742u   33.3079u
  cdtot     13.7587f   26.9466f   55.5081f   65.8545f    4.9862f    3.8698f
  cgtot     19.8207f   35.7620f  122.6721f  127.5946f    6.8158f    4.8292f
  cstot     14.5470f   17.1525f   88.6179f   85.5919f    5.7231f    3.7320f
  cbtot     19.2685f   22.9016f   77.6110f   79.8793f    6.9540f    4.9933f
  cgs        7.9298f   17.9568f   89.7464f   86.7935f    5.1880f    3.5947f
  cgd        6.8430f   17.3529f   27.1731f   36.3506f    1.4340f    1.0179f



 subckt   x1         x1         x1         x1         x1         x1        
 element  1:m13      1:m14      1:m15      1:m16      1:m17      1:m18     
 model    0:cmosp    0:cmosp    0:cmosn    0:cmosp    0:cmosp    0:cmosn   
 region       Cutoff     Linear   Saturati   Saturati   Saturati   Saturati
  id       -56.6426p -203.0971u    9.5804u   -9.5804u -203.0971u    9.6726u
  ibs        0.         0.         0.         0.         0.         0.     
  ibd        0.         0.         0.         0.         0.         0.     
  vgs       -7.2176m   -1.9322   599.9513m -549.1438m -629.6482m  599.9513m
  vds      -44.5584m  -44.5584m    1.4509  -549.1438m   -1.1304     1.2732 
  vbs        0.         0.         0.         0.        44.5584m    0.     
  vth     -444.3850m -444.3850m  455.5442m -443.6667m -457.0805m  457.1766m
  vdsat    -38.1189m   -1.0916   115.7582m -107.0837m -156.0413m  114.8298m
  vod      437.1673m   -1.4878   144.4071m -105.4771m -172.5676m  142.7747m
  beta       4.7240m    3.4467m  955.3709u    1.6702m   13.8691m  992.0876u
  gam eff  530.4390m  530.4390m  564.6025m  529.8218m  529.6464m  565.0544m
  gm         1.4887n   90.0569u  119.4438u  142.5664u    2.1339m  121.8943u
  gds      374.2257p    4.4614m    1.1026u    1.3528u   17.3112u    1.1496u
  gmb      561.5233p   53.0032u   31.5864u   43.0157u  639.8674u   32.2437u
  cdtot     38.5164f   62.3086f    3.3953f   13.9205f   95.9591f    3.4928f
  cgtot     44.9072f   80.3944f    4.1930f   25.6094f  221.4311f    4.3522f
  cstot     36.8623f   45.5500f    3.2699f   20.9337f  177.5703f    3.3855f
  cbtot     58.8571f   59.5686f    4.3978f   20.8687f  150.8884f    4.5255f
  cgs       15.4855f   42.0040f    3.1279f   19.1001f  167.9364f    3.2450f
  cgd       15.3044f   38.8819f  881.9474a    5.5307f   46.9705f  915.8111a



 subckt   x1         x1         x1         x1         x1.x1      x1.x1     
 element  1:m19      1:m20      1:m21      1:m22      2:m1       2:m2      
 model    0:cmosp    0:cmosp    0:cmosp    0:cmosn    0:cmosp    0:cmosp   
 region     Saturati   Saturati   Saturati   Saturati   Saturati   Saturati
  id        -9.6726u   -9.6290u  -10.0062u   10.0062u   -8.3366u   -2.7051u
  ibs        0.         0.         0.         0.         0.         0.     
  ibd        0.         0.         0.         0.         0.         0.     
  vgs     -726.8341m -674.2066m -674.2066m  555.8581m -529.0644m -536.1542m
  vds     -726.8341m   -1.4000    -1.4441   555.8581m -529.0644m   -1.9873 
  vbs        0.         0.         0.         0.         7.0898m    0.     
  vth     -441.9742m -441.3704m -441.3584m  470.2962m -445.9979m -441.1317m
  vdsat   -228.5077m -192.8701m -192.9942m   83.8615m  -93.8930m  -99.2013m
  vod     -284.8599m -232.8362m -232.8482m   85.5619m  -83.0665m  -95.0225m
  beta     275.4333u  383.1061u  396.8317u    2.4921m    2.0670m  489.3691u
  gam eff  525.1306m  526.6825m  526.8249m  572.1572m  529.9942m  528.1412m
  gm        62.5934u   76.4294u   79.3469u  169.9621u  137.3504u   40.8558u
  gds      915.8015n  685.4079n  703.8893n    1.9787u    1.2658u  287.6583n
  gmb       19.1105u   23.0968u   23.9817u   45.2435u   41.4216u   12.1657u
  cdtot      3.9137f    4.2764f    4.3482f    6.3610f   14.8965f    3.1776f
  cgtot      4.4955f    6.1858f    6.4075f   10.6399f   31.0045f    7.4388f
  cstot      3.8549f    5.2142f    5.3927f    7.9556f   25.2726f    6.1950f
  cbtot      5.2880f    6.0859f    6.2140f    8.6377f   23.3105f    5.3329f
  cgs        3.4290f    4.7054f    4.8738f    7.7283f   22.8011f    5.5081f
  cgd      943.8678a    1.3002f    1.3470f    2.3057f    6.8217f    1.6144f



 subckt   x1.x1      x1.x1      x1.x2      x1.x2      x1.x2      x1.x2     
 element  2:m3       2:m4       3:m1       3:m2       3:m3       3:m4      
 model    0:cmosn    0:cmosn    0:cmosp    0:cmosp    0:cmosn    0:cmosn   
 region     Saturati     Linear   Saturati   Saturati   Saturati   Saturati
  id         8.3366u    2.7051u   -8.1251u  -15.2428u    8.1251u   15.2428u
  ibs        0.         0.         0.         0.         0.         0.     
  ibd        0.         0.         0.         0.         0.         0.     
  vgs      555.8581m  555.8581m -567.8143m -713.2036m  555.8581m  555.8581m
  vds        1.4638    12.6901m -567.8143m -796.5297m    1.2868     1.2035 
  vbs        0.         0.       145.3893m    0.         0.         0.     
  vth      464.5016m  475.8447m -487.7983m -442.8452m  465.4897m  469.3507m
  vdsat     86.8140m   81.1231m  -94.6809m -221.1166m   86.3062m   84.3706m
  vod       91.3565m   80.0134m  -80.0160m -270.3584m   90.3684m   86.5074m
  beta       1.7735m    3.5614m    2.0210m  470.5375u    1.7736m    3.5607m
  gam eff  571.5761m  574.2230m  526.8513m  528.1412m  571.5761m  574.2230m
  gm       135.9797u   33.5318u  134.9771u  103.9853u  133.5269u  255.2402u
  gds        1.1952u  195.1732u    1.2264u    1.3117u    1.1949u    2.2778u
  gmb       36.1116u    9.1710u   38.7084u   31.8987u   35.4797u   67.6838u
  cdtot      3.1197f    9.8664f   14.5365f    3.5297f    3.1494f    6.1951f
  cgtot      7.6102f   16.4265f   30.8500f    7.6727f    7.6043f   15.2059f
  cstot      5.7082f   10.0430f   24.5805f    6.3681f    5.7040f   11.2277f
  cbtot      4.7593f   10.5168f   22.0423f    5.6610f    4.7891f    9.3114f
  cgs        5.5515f    9.8386f   22.7549f    5.8466f    5.5435f   11.0412f
  cgd        1.6404f    6.0465f    6.8177f    1.6151f    1.6405f    3.2930f



 subckt   x1.x3      x1.x3      x1.x3      x1.x3      x1.x4      x1.x4     
 element  4:m1       4:m2       4:m3       4:m4       5:m1       5:m2      
 model    0:cmosp    0:cmosp    0:cmosn    0:cmosn    0:cmosp    0:cmosp   
 region     Saturati   Saturati   Saturati   Saturati     Linear   Saturati
  id       -14.9560u   -7.3398u   14.9560u    7.3398u   -6.8109u   -7.3879u
  ibs        0.         0.         0.         0.         0.         0.     
  ibd        0.         0.         0.         0.         0.         0.     
  vgs     -726.8341m -726.8341m  703.6439m  567.1309m -726.8341m -726.8341m
  vds       -1.4520    -1.2964   548.0449m  567.1309m  -77.9060m   -1.3956 
  vbs        0.         0.         0.      -136.5131m    0.         0.     
  vth     -441.7170m -440.6670m  455.8013m  510.6436m -443.7823m -440.4724m
  vdsat   -231.0188m -229.0472m  171.8554m   72.4723m -229.5709m -229.1820m
  vod     -285.1172m -286.1672m  247.8427m   56.4872m -283.0519m -286.3617m
  beta     402.4155u  200.1828u  576.2759u    2.9293m  402.2202u  200.1924u
  gam eff  527.6999m  524.5545m  560.5411m  573.2388m  527.6999m  524.5545m
  gm        95.6033u   47.0310u  111.7194u  140.7331u   29.0129u   47.2375u
  gds      910.7877n  489.1798n    2.3323u    1.5634u   69.6915u  478.3657n
  gmb       29.2567u   14.3022u   29.1164u   35.6539u    9.6603u   14.3580u
  cdtot      2.8521f    1.5052f    1.1853f    5.2839f    4.6666f    1.4917f
  cgtot      6.5777f    3.2639f    2.5368f   11.9510f    7.1187f    3.2639f
  cstot      5.4842f    2.8159f    2.0225f    8.7421f    4.9869f    2.8158f
  cbtot      4.7058f    2.5217f    1.8232f    7.5895f    5.4771f    2.5082f
  cgs        5.0113f    2.4886f    1.9118f    8.4565f    4.5221f    2.4884f
  cgd        1.3833f  684.5954a  530.5147a    2.7006f    2.5664f  684.5751a



 subckt   x1.x4      x1.x4     
 element  5:m3       5:m4      
 model    0:cmosn    0:cmosn   
 region     Saturati   Saturati
  id         6.8109u    7.3879u
  ibs        0.         0.     
  ibd        0.         0.     
  vgs      604.3576m  547.2646m
  vds        1.9221   547.2646m
  vbs        0.       -57.0930m
  vth      447.4058m  488.6510m
  vdsat    122.9390m   72.1063m
  vod      156.9519m   58.6136m
  beta     573.6417u    2.9215m
  gam eff  560.5411m  573.4699m
  gm        79.1375u  140.7534u
  gds      720.5135n    1.5896u
  gmb       20.9241u   36.7727u
  cdtot      1.0875f    5.3290f
  cgtot      2.5245f   12.0154f
  cstot      2.0134f    8.8592f
  cbtot      1.7322f    7.7886f
  cgs        1.8905f    8.4990f
  cgd      529.5598a    2.7003f




          ***** job concluded
1****** HSPICE -- F-2011.09 64-BIT (Sep  5 2011) linux ******                   
 ******  
 * eesm5120 amplifier design

  ******  job statistics summary tnom=  25.000 temp=  25.000 *****
  
  
 ******  Machine Information  ******
 CPU:
 model name	: Intel(R) Xeon(R) CPU E5-2690 0 @ 2.90GHz
 cpu MHz	: 1200.000
  
 OS:
 Linux version 2.6.32-754.28.1.el6.x86_64 (mockbuild@x86-02.bsys.centos.org) (gc
 c version 4.4.7 20120313 (Red Hat 4.4.7-23) (GCC) ) #1 SMP Wed Mar 11 18:38:45 
 UTC 2020


  ******  HSPICE Threads Information  ******

  Command Line Threads Count :     1
  Available CPU Count        :    32
  Actual Threads Count       :     1


  ******  Circuit Statistics  ******
  # nodes       =      25 # elements   =      44
  # resistors   =       0 # capacitors =       2 # inductors   =       0
  # mutual_inds =       0 # vccs       =       0 # vcvs        =       0
  # cccs        =       0 # ccvs       =       0 # volt_srcs   =       3
  # curr_srcs   =       1 # diodes     =       0 # bjts        =       0
  # jfets       =       0 # mosfets    =      38 # U elements  =       0
  # T elements  =       0 # W elements =       0 # B elements  =       0
  # S elements  =       0 # P elements =       0 # va device   =       0
  # vector_srcs =       0


  ******  Runtime Statistics (seconds)  ******

  analysis           time    # points   tot. iter  conv.iter
  op point           0.00           1          48
  transient          0.03       10001         428         151 rev=         4
  readin             0.00
  errchk             0.01
  setup              0.00
  output             0.00


           peak memory used        129.48 megabytes
           total cpu time            0.04 seconds
           total elapsed time        0.06 seconds
           job started at     23:11:16 04/07/2021
           job ended   at     23:11:16 04/07/2021


 lic: Release hspice token(s) 
