Using: /usr/bin/time -p /usr/eelocal/synopsys/hspice-vf2011.09/hspice/amd64/hspice opamp_noise.sp
 ****** HSPICE -- F-2011.09 64-BIT (Sep  5 2011) linux ******                   
  Copyright (C) 2011 Synopsys, Inc. All Rights Reserved.                        
  Unpublished-rights reserved under US copyright laws.
  This program is protected by law and is subject to the
  terms and conditions of the license agreement from Synopsys.
  Use of this program is your acceptance to be bound by the
  license agreement. HSPICE is the trademark of Synopsys, Inc.
  Input File: opamp_noise.sp                                                    
  Command line options: opamp_noise.sp
 lic:  
 lic: FLEXlm: v10.8 
 lic: USER:   kslamaf              HOSTNAME: EEX052 
 lic: HOSTID:                      PID:      15247 
 lic: Using FLEXlm license file: 
 lic: 27041@eesvr5.ece.ust.hk 
 lic: Checkout 1 hspice 
 lic: License/Maintenance for hspice will expire on 20-may-2021/2020.12 
 lic: 1(in_use)/25(total) FLOATING license(s) on SERVER eesvr5.ece.ust.hk 
 lic:   
 Init: read install configuration file: /usr/eelocal/synopsys/hspice-vf2011.09/hspice/meta.cfg
1****** HSPICE -- F-2011.09 64-BIT (Sep  5 2011) linux ******                   
 ******  
 * eesm5120 amplifier design

  ******  circuit name directory
 circuit number to circuit name directory
   number circuitname                     definition         multiplier
        0 main circuit
        1 x1.                             folded_cascode_amp
                                                                 1.00 
        2 x1.x1.                          aux_p              1.00 
        3 x1.x2.                          aux_p              1.00 
        4 x1.x3.                          aux_n              1.00 
        5 x1.x4.                          aux_n              1.00 
 

  
      
 **info** set option symb=1 internally to help for convergence.
 *****************************************************************
 ******  option summary
 ******
 runlvl  = 3         bypass  = 2         
  Opening plot unit= 15
 file=opamp_noise.pa0                                                          

1****** HSPICE -- F-2011.09 64-BIT (Sep  5 2011) linux ******                   
 ******  
 * eesm5120 amplifier design

  ******  operating point information tnom=  25.000 temp=  25.000 *****
 ***** operating point status is all       simulation time is     0.     
    node    =voltage      node    =voltage      node    =voltage

 +0:100     =   0.      0:101     =   0.      0:102     =   0.     
 +0:vdd     =   1.0000  0:vin+    =   0.      0:vin-    =   0.     
 +0:vo+     =-197.0694u 0:vo-     =-197.0693u 0:vss     =  -1.0000 
 +1:1       = 325.7934m 1:2       = 602.5215m 1:3       = 450.8562m
 +1:4       = 854.8062m 1:5       = 854.8062m 1:6       =-444.1419m
 +1:7       = 273.1659m 1:8       =-868.1735m 1:9       =-868.1735m
 +1:10      =-400.0487m 1:11      = 955.2385m 1:12      = 196.2506m
 +1:13      = 196.2506m 1:14      =-219.0443m 1:15      =-219.0443m
 +2:1       = 287.0453m 3:1       = 287.0453m 4:2       =-302.1979m
 +5:2       =-302.1979m


 **** voltage sources

 subckt                                                         
 element  0:vdd      0:vss      0:vcm      0:vs       0:voff    
  volts      1.0000    -1.0000     1.0000     0.         0.     
  current -466.0004u  466.0004u    0.         0.         0.     
  power    466.0004u  466.0004u    0.         0.         0.     

     total voltage source power dissipation=  932.0008u       watts



 **** current sources

 subckt   x1        
 element  1:ib      
  volts      1.3258 
  current   10.0000u
  power    -13.2579u


     total current source power dissipation= -13.2579u       watts

 **** voltage-controlled voltage sources


 subckt                        
 element  0:e+       0:e-      
  volts      0.         0.     
  current    0.         0.     





 **** mosfets


 subckt   x1         x1         x1         x1         x1         x1        
 element  1:m01      1:m02      1:m03      1:m04      1:m05      1:m06     
 model    0:cmosp    0:cmosp    0:cmosp    0:cmosp    0:cmosp    0:cmosp   
 region     Saturati   Saturati   Saturati   Saturati   Saturati   Saturati
  id       -92.7967u  -92.7967u  -78.4522u  -78.4522u  -70.3268u  -70.3268u
  ibs        0.         0.         0.         0.         0.         0.     
  ibd        0.         0.         0.         0.         0.         0.     
  vgs     -602.5215m -602.5215m -549.1438m -549.1438m -658.5556m -658.5556m
  vds       -1.4707    -1.4707  -145.1938m -145.1938m -855.0033m -855.0033m
  vbs      397.4785m  397.4785m    0.         0.       145.1938m  145.1938m
  vth     -597.1322m -597.1322m -444.3206m -444.3206m -487.5106m -487.5106m
  vdsat    -64.7265m  -64.7265m -107.8058m -107.8058m -157.1349m -157.1349m
  vod       -5.3893m   -5.3893m -104.8232m -104.8232m -171.0450m -171.0450m
  beta      68.1300m   68.1300m   15.0761m   15.0761m    4.8904m    4.8904m
  gam eff  522.2123m  522.2123m  530.6820m  530.6820m  527.1898m  527.1898m
  gm         1.9236m    1.9236m    1.1441m    1.1441m  742.5489u  742.5489u
  gds       16.3361u   16.3361u   75.2224u   75.2224u    6.8200u    6.8200u
  gmb      505.8995u  505.8995u  348.2905u  348.2905u  215.0841u  215.0841u
  cdtot    185.6289f  185.6289f  119.6948f  119.6948f   36.1694f   36.1694f
  cgtot    264.4239f  264.4239f  232.6299f  232.6299f   79.2509f   79.2509f
  cstot    242.8691f  242.8691f  187.5246f  187.5246f   62.6476f   62.6476f
  cbtot    231.6141f  231.6141f  179.1556f  179.1556f   54.4342f   54.4342f
  cgs      153.4817f  153.4817f  172.6232f  172.6232f   60.2618f   60.2618f
  cgd       97.0029f   97.0029f   51.8481f   51.8481f   16.8293f   16.8293f



 subckt   x1         x1         x1         x1         x1         x1        
 element  1:m07      1:m08      1:m09      1:m10      1:m11      1:m12     
 model    0:cmosn    0:cmosn    0:cmosn    0:cmosn    0:cmosp    0:cmosn   
 region     Saturati   Saturati   Saturati   Saturati   Saturati   Saturati
  id        70.3268u   70.3268u  170.4662u  170.4662u  -10.0000u    9.6290u
  ibs        0.         0.         0.         0.         0.         0.     
  ibd        0.         0.         0.         0.         0.         0.     
  vgs      649.1292m  649.1292m  599.9513m  599.9513m -674.2066m  599.9513m
  vds      867.9764m  867.9764m  131.8265m  131.8265m -674.2066m  599.9513m
  vbs     -131.8265m -131.8265m    0.         0.         0.         0.     
  vth      509.6504m  509.6504m  477.9163m  477.9163m -442.6878m  462.6186m
  vdsat    116.1346m  116.1346m  103.3762m  103.3762m -192.2525m  111.7534m
  vod      139.4788m  139.4788m  122.0350m  122.0350m -231.5188m  137.3327m
  beta       7.3583m    7.3583m   27.8791m   27.8791m  421.8595u    1.1023m
  gam eff  574.9858m  574.9858m  576.4327m  576.4327m  527.0619m  566.2301m
  gm       890.2764u  890.2764u    2.2780m    2.2780m   80.6199u  125.7384u
  gds        9.0321u    9.0321u  306.3690u  306.3690u    1.0309u    1.5960u
  gmb      222.1771u  222.1771u  602.1480u  602.1480u   24.4742u   33.3079u
  cdtot     14.4483f   14.4620f   55.7068f   55.7068f    4.9862f    3.8698f
  cgtot     32.0316f   32.0316f  122.7784f  122.7784f    6.8158f    4.8292f
  cstot     23.1406f   23.1406f   88.6000f   88.6000f    5.7231f    3.7320f
  cbtot     20.0335f   20.0471f   77.6823f   77.6823f    6.9540f    4.9933f
  cgs       23.8311f   23.8311f   89.7272f   89.7272f    5.1880f    3.5947f
  cgd        6.7784f    6.7784f   27.3267f   27.3267f    1.4340f    1.0179f



 subckt   x1         x1         x1         x1         x1         x1        
 element  1:m13      1:m14      1:m15      1:m16      1:m17      1:m18     
 model    0:cmosp    0:cmosp    0:cmosn    0:cmosp    0:cmosp    0:cmosn   
 region       Linear     Linear   Saturati   Saturati   Saturati   Saturati
  id       -92.7967u  -92.7967u    9.5804u   -9.5804u -185.5934u    9.6726u
  ibs        0.         0.         0.         0.         0.         0.     
  ibd        0.         0.         0.         0.         0.         0.     
  vgs       -1.0002    -1.0002   599.9513m -549.1438m -629.4451m  599.9513m
  vds      -44.7615m  -44.7615m    1.4509  -549.1438m -352.7170m    1.2732 
  vbs        0.         0.         0.         0.        44.7615m    0.     
  vth     -444.3847m -444.3847m  455.5442m -443.6667m -458.0259m  457.1766m
  vdsat   -426.2738m -426.2738m  115.7582m -107.0837m -155.2133m  114.8298m
  vod     -555.8123m -555.8123m  144.4071m -105.4771m -171.4193m  142.7747m
  beta       4.1535m    4.1535m  955.3709u    1.6702m   13.8667m  992.0876u
  gam eff  530.4390m  530.4390m  564.6025m  529.8218m  529.6418m  565.0544m
  gm       153.7958u  153.7958u  119.4438u  142.5664u    1.9767m  121.8943u
  gds        1.9588m    1.9588m    1.1026u    1.3528u   36.7087u    1.1496u
  gmb       61.4461u   61.4461u   31.5864u   43.0157u  594.9889u   32.2437u
  cdtot     59.9847f   59.9847f    3.3953f   13.9205f  105.9866f    3.4928f
  cgtot     80.3082f   80.3082f    4.1930f   25.6094f  221.7170f    4.3522f
  cstot     47.6489f   47.6489f    3.2699f   20.9337f  177.7666f    3.3855f
  cbtot     59.6213f   59.6213f    4.3978f   20.8687f  160.7389f    4.5255f
  cgs       44.0903f   44.0903f    3.1279f   19.1001f  168.1994f    3.2450f
  cgd       36.5797f   36.5797f  881.9474a    5.5307f   47.2130f  915.8111a



 subckt   x1         x1         x1         x1         x1.x1      x1.x1     
 element  1:m19      1:m20      1:m21      1:m22      2:m1       2:m2      
 model    0:cmosp    0:cmosp    0:cmosp    0:cmosn    0:cmosp    0:cmosp   
 region     Saturati   Saturati   Saturati   Saturati   Saturati   Saturati
  id        -9.6726u   -9.6290u  -10.0062u   10.0062u   -8.1254u  -15.2264u
  ibs        0.         0.         0.         0.         0.         0.     
  ibd        0.         0.         0.         0.         0.         0.     
  vgs     -726.8341m -674.2066m -674.2066m  555.8581m -567.7609m -712.9547m
  vds     -726.8341m   -1.4000    -1.4441   555.8581m -567.7609m -803.7494m
  vbs        0.         0.         0.         0.       145.1938m    0.     
  vth     -441.9742m -441.3704m -441.3584m  470.2962m -487.7410m -442.8348m
  vdsat   -228.5077m -192.8701m -192.9942m   83.8615m  -94.6800m -220.9467m
  vod     -284.8599m -232.8362m -232.8482m   85.5619m  -80.0199m -270.1198m
  beta     275.4333u  383.1061u  396.8317u    2.4921m    2.0211m  470.5647u
  gam eff  525.1306m  526.6825m  526.8249m  572.1572m  526.8556m  528.1412m
  gm        62.5934u   76.4294u   79.3469u  169.9621u  134.9805u  103.9678u
  gds      915.8015n  685.4079n  703.8893n    1.9787u    1.2265u    1.3016u
  gmb       19.1105u   23.0968u   23.9817u   45.2435u   38.7121u   31.8904u
  cdtot      3.9137f    4.2764f    4.3482f    6.3610f   14.5370f    3.5266f
  cgtot      4.4955f    6.1858f    6.4075f   10.6399f   30.8502f    7.6727f
  cstot      3.8549f    5.2142f    5.3927f    7.9556f   24.5814f    6.3680f
  cbtot      5.2880f    6.0859f    6.2140f    8.6377f   22.0440f    5.6579f
  cgs        3.4290f    4.7054f    4.8738f    7.7283f   22.7550f    5.8465f
  cgd      943.8678a    1.3002f    1.3470f    2.3057f    6.8177f    1.6150f



 subckt   x1.x1      x1.x1      x1.x2      x1.x2      x1.x2      x1.x2     
 element  2:m3       2:m4       3:m1       3:m2       3:m3       3:m4      
 model    0:cmosn    0:cmosn    0:cmosp    0:cmosp    0:cmosn    0:cmosn   
 region     Saturati   Saturati   Saturati   Saturati   Saturati   Saturati
  id         8.1254u   15.2264u   -8.1254u  -15.2264u    8.1254u   15.2264u
  ibs        0.         0.         0.         0.         0.         0.     
  ibd        0.         0.         0.         0.         0.         0.     
  vgs      555.8581m  555.8581m -567.7609m -712.9547m  555.8581m  555.8581m
  vds        1.2870     1.1963  -567.7609m -803.7494m    1.2870     1.1963 
  vbs        0.         0.       145.1938m    0.         0.         0.     
  vth      465.4883m  469.3901m -487.7410m -442.8348m  465.4883m  469.3901m
  vdsat     86.3069m   84.3507m  -94.6800m -220.9467m   86.3069m   84.3507m
  vod       90.3698m   86.4680m  -80.0199m -270.1198m   90.3698m   86.4680m
  beta       1.7736m    3.5607m    2.0211m  470.5647u    1.7736m    3.5607m
  gam eff  571.5761m  574.2230m  526.8556m  528.1412m  571.5761m  574.2230m
  gm       133.5304u  255.0410u  134.9805u  103.9678u  133.5304u  255.0410u
  gds        1.1949u    2.2783u    1.2265u    1.3016u    1.1949u    2.2783u
  gmb       35.4806u   67.6324u   38.7121u   31.8904u   35.4806u   67.6324u
  cdtot      3.1493f    6.1978f   14.5370f    3.5266f    3.1493f    6.1978f
  cgtot      7.6043f   15.2054f   30.8502f    7.6727f    7.6043f   15.2054f
  cstot      5.7040f   11.2273f   24.5814f    6.3680f    5.7040f   11.2273f
  cbtot      4.7890f    9.3140f   22.0440f    5.6579f    4.7890f    9.3140f
  cgs        5.5435f   11.0405f   22.7550f    5.8465f    5.5435f   11.0405f
  cgd        1.6405f    3.2930f    6.8177f    1.6150f    1.6405f    3.2930f



 subckt   x1.x3      x1.x3      x1.x3      x1.x3      x1.x4      x1.x4     
 element  4:m1       4:m2       4:m3       4:m4       5:m1       5:m2      
 model    0:cmosp    0:cmosp    0:cmosn    0:cmosn    0:cmosp    0:cmosp   
 region     Saturati   Saturati   Saturati   Saturati   Saturati   Saturati
  id       -14.7381u   -7.3427u   14.7381u    7.3427u  -14.7381u   -7.3427u
  ibs        0.         0.         0.         0.         0.         0.     
  ibd        0.         0.         0.         0.         0.         0.     
  vgs     -726.8341m -726.8341m  697.8021m  565.9756m -726.8341m -726.8341m
  vds       -1.2190    -1.3022   780.9557m  565.9756m   -1.2190    -1.3022 
  vbs        0.         0.         0.      -131.8265m    0.         0.     
  vth     -442.0671m -440.6555m  454.3782m  509.3692m -442.0671m -440.6555m
  vdsat   -230.7734m -229.0552m  169.6091m   72.4521m -230.7734m -229.0552m
  vod     -284.7671m -286.1786m  243.4239m   56.6064m -284.7671m -286.1786m
  beta     402.3824u  200.1834u  576.1729u    2.9289m  402.3824u  200.1834u
  gam eff  527.6999m  524.5545m  560.5411m  573.2522m  527.6999m  524.5545m
  gm        94.6463u   47.0435u  112.5026u  140.7374u   94.6463u   47.0435u
  gds      965.1292n  488.4704n    1.5779u    1.5648u  965.1292n  488.4704n
  gmb       28.9970u   14.3056u   29.3182u   35.7178u   28.9970u   14.3056u
  cdtot      2.9117f    1.5044f    1.1609f    5.2864f    2.9117f    1.5044f
  cgtot      6.5779f    3.2639f    2.5358f   11.9546f    6.5779f    3.2639f
  cstot      5.4849f    2.8159f    2.0220f    8.7487f    5.4849f    2.8159f
  cbtot      4.7650f    2.5208f    1.7996f    7.6007f    4.7650f    2.5208f
  cgs        5.0127f    2.4886f    1.9110f    8.4589f    5.0127f    2.4886f
  cgd        1.3834f  684.5940a  529.7815a    2.7006f    1.3834f  684.5940a



 subckt   x1.x4      x1.x4     
 element  5:m3       5:m4      
 model    0:cmosn    0:cmosn   
 region     Saturati   Saturati
  id        14.7381u    7.3427u
  ibs        0.         0.     
  ibd        0.         0.     
  vgs      697.8021m  565.9756m
  vds      780.9557m  565.9756m
  vbs        0.      -131.8265m
  vth      454.3782m  509.3692m
  vdsat    169.6091m   72.4521m
  vod      243.4239m   56.6064m
  beta     576.1729u    2.9289m
  gam eff  560.5411m  573.2522m
  gm       112.5026u  140.7374u
  gds        1.5779u    1.5648u
  gmb       29.3182u   35.7178u
  cdtot      1.1609f    5.2864f
  cgtot      2.5358f   11.9546f
  cstot      2.0220f    8.7487f
  cbtot      1.7996f    7.6007f
  cgs        1.9110f    8.4589f
  cgd      529.7815a    2.7006f



1****** HSPICE -- F-2011.09 64-BIT (Sep  5 2011) linux ******                   
 ******  
 * eesm5120 amplifier design

  ******  noise analysis tnom=  25.000 temp=  25.000 *****

     frequency =   1.0000k      hz




 **** mosfet squared noise voltages (sq v/hz)




 element     1:m01
       rd    0.         
       rs    0.         
       id    4.5307n    
       rx   12.9905x    
       fn    0.         
    total    4.5307n    




 element     1:m02
       rd    0.         
       rs    0.         
       id    4.5307n    
       rx   12.9905x    
       fn    0.         
    total    4.5307n    




 element     1:m03
       rd    0.         
       rs    0.         
       id    2.9254n    
       rx   13.0389x    
       fn    0.         
    total    2.9254n    




 element     1:m04
       rd    0.         
       rs    0.         
       id    2.9254n    
       rx   13.0389x    
       fn    0.         
    total    2.9254n    




 element     1:m05
       rd    0.         
       rs    0.         
       id   13.1257f    
       rx   35.2113k    
       fn    0.         
    total   13.1257f    




 element     1:m06
       rd    0.         
       rs    0.         
       id   13.1257f    
       rx   35.2113k    
       fn    0.         
    total   13.1257f    




 element     1:m07
       rd    0.         
       rs    0.         
       id   86.0906f    
       rx   83.6261k    
       fn    0.         
    total   86.0906f    




 element     1:m08
       rd    0.         
       rs    0.         
       id   86.0906f    
       rx   83.6261k    
       fn    0.         
    total   86.0906f    




 element     1:m09
       rd    0.         
       rs    0.         
       id    5.9027n    
       rx   12.9905x    
       fn    0.         
    total    5.9027n    




 element     1:m10
       rd    0.         
       rs    0.         
       id    5.9027n    
       rx   12.9905x    
       fn    0.         
    total    5.9027n    




 element     1:m11
       rd    0.         
       rs    0.         
       id  5.692e-27    
       rx   69.9009m    
       fn    0.         
    total  5.692e-27    




 element     1:m12
       rd    0.         
       rs    0.         
       id  7.845e-26    
       rx  210.9182m    
       fn    0.         
    total  7.845e-26    




 element     1:m13
       rd    0.         
       rs    0.         
       id  3.159e-28    
       rx    3.6383m    
       fn    0.         
    total  3.159e-28    




 element     1:m14
       rd    0.         
       rs    0.         
       id  3.159e-28    
       rx    3.6383m    
       fn    0.         
    total  3.159e-28    




 element     1:m15
       rd    0.         
       rs    0.         
       id  3.499e-26    
       rx  144.7602m    
       fn    0.         
    total  3.499e-26    




 element     1:m16
       rd    0.         
       rs    0.         
       id  4.300e-26    
       rx  144.7602m    
       fn    0.         
    total  4.300e-26    




 element     1:m17
       rd    0.         
       rs    0.         
       id  8.550e-28    
       rx    5.4645m    
       fn    0.         
    total  8.550e-28    




 element     1:m18
       rd    0.         
       rs    0.         
       id  7.950e-28    
       rx   21.5966m    
       fn    0.         
    total  7.950e-28    




 element     1:m19
       rd    0.         
       rs    0.         
       id  4.230e-28    
       rx   21.5966m    
       fn    0.         
    total  4.230e-28    




 element     1:m20
       rd    0.         
       rs    0.         
       id  4.894e-26    
       rx  210.9182m    
       fn    0.         
    total  4.894e-26    




 element     1:m21
       rd    0.         
       rs    0.         
       id    0.         
       rx    4.9003m    
       fn    0.         
    total    0.         




 element     1:m22
       rd    0.         
       rs    0.         
       id    0.         
       rx    4.9003m    
       fn    0.         
    total    0.         




 element     2:m1
       rd    0.         
       rs    0.         
       id   56.2616p    
       rx    5.4131x    
       fn    0.         
    total   56.2616p    




 element     2:m2
       rd    0.         
       rs    0.         
